
T185C 001:892 SEGGER J-Link V6.00e Log File (0009ms, 1862ms total)
T185C 001:892 DLL Compiled: Aug  4 2016 09:37:38 (0009ms, 1862ms total)
T185C 001:892 Logging started @ 2017-10-27 17:56 (0009ms, 1862ms total)
T185C 001:901 JLINK_SetWarnOutHandler(...) (0001ms, 1863ms total)
T185C 001:902 JLINK_OpenEx(...)
Firmware: J-Link OpenSDA 2 compiled May  6 2016 11:04:17
Hardware: V1.00
S/N: 621000000  returns O.K. (2587ms, 4450ms total)
T185C 004:489 JLINK_SetErrorOutHandler(...) (0000ms, 4450ms total)
T185C 004:489 JLINK_ExecCommand("ProjectFile = "C:\Users\ThinkPad\Desktop\lab1_3_test\JLinkSettings.ini"", ...).   returns 0x00 (0121ms, 4571ms total)
T185C 004:614 JLINK_ExecCommand("Device = MKW41Z256xxx4", ...). Device "MKW41Z256XXX4" selected.  returns 0x00 (0002ms, 4574ms total)
T185C 004:617 JLINK_ExecCommand("DisableConnectionTimeout", ...).   returns 0x01 (0000ms, 4574ms total)
T185C 004:617 JLINK_GetHardwareVersion()  returns 0x2710 (0000ms, 4574ms total)
T185C 004:617 JLINK_GetDLLVersion()  returns 60005 (0000ms, 4574ms total)
T185C 004:617 JLINK_GetFirmwareString(...) (0000ms, 4574ms total)
T185C 004:622 JLINK_GetDLLVersion()  returns 60005 (0000ms, 4574ms total)
T185C 004:622 JLINK_GetCompileDateTime() (0000ms, 4574ms total)
T185C 004:626 JLINK_GetFirmwareString(...) (0000ms, 4574ms total)
T185C 004:628 JLINK_GetHardwareVersion()  returns 0x2710 (0000ms, 4574ms total)
T185C 004:633 JLINK_TIF_Select(JLINKARM_TIF_SWD)  returns 0x00 (0001ms, 4575ms total)
T185C 004:634 JLINK_SetSpeed(5000) (0000ms, 4575ms total)
T185C 004:634 JLINK_GetId() >0x108 TIF>Found SWD-DP with ID 0x0BC11477 >0x0D TIF> >0x28 TIF> >0x0D TIF> >0x28 TIF> >0x0D TIF> >0x28 TIF> >0x0D TIF> >0x28 TIF> >0x0D TIF> >0x21 TIF> >0x0D TIF> >0x28 TIF> >0x0D TIF> >0x21 TIF> >0x0D TIF> >0x21 TIF> >0x0D TIF> >0x21 TIF> >0x0D TIF> >0x21 TIF> >0x0D TIF> >0x21 TIF> >0x0D TIF> >0x21 TIF> >0x0D TIF> >0x21 TIF> >0x0D TIF> >0x21 TIF> >0x0D TIF> >0x21 TIF> >0x0D TIF> >0x21 TIF> >0x0D TIF> >0x21 TIF> >0x0D TIF> >0x21 TIF> >0x0D TIF> >0x21 TIF> >0x0D TIF>
 >0x21 TIF> >0x0D TIF> >0x21 TIF> >0x0D TIF> >0x21 TIF> >0x0D TIF> >0x21 TIF> >0x0D TIF> >0x21 TIF> >0x0D TIF> >0x21 TIF> >0x0D TIF> >0x21 TIF> >0x0D TIF> >0x21 TIF> >0x0D TIF> >0x21 TIF> >0x0D TIF> >0x21 TIF> >0x0D TIF> >0x21 TIF> >0x0D TIF> >0x21 TIF> >0x0D TIF> >0x21 TIF> >0x0D TIF> >0x21 TIF> >0x0D TIF> >0x21 TIF> >0x0D TIF> >0x21 TIF> >0x0D TIF> >0x21 TIF> >0x0D TIF> >0x21 TIF> >0x0D TIF> >0x21 TIF> >0x0D TIF> >0x21 TIF> >0x0D TIF> >0x21 TIF> >0x0D TIF> >0x21 TIF> >0x0D TIF> >0x21 TIF> >0x0D TIF>
 >0x21 TIF> >0x0D TIF> >0x21 TIF> >0x0D TIF> >0x21 TIF> >0x0D TIF> >0x21 TIF> >0x0D TIF> >0x21 TIF> >0x0D TIF> >0x21 TIF> >0x0D TIF> >0x21 TIF> >0x0D TIF> >0x21 TIF> >0x0D TIF> >0x21 TIF> >0x0D TIF> >0x21 TIF> >0x0D TIF> >0x21 TIF> >0x0D TIF> >0x21 TIF> >0x0D TIF> >0x21 TIF> >0x0D TIF> >0x21 TIF> >0x0D TIF> >0x21 TIF> >0x0D TIF> >0x21 TIF> >0x0D TIF> >0x21 TIF> >0x0D TIF> >0x21 TIF> >0x0D TIF> >0x21 TIF> >0x0D TIF> >0x21 TIF> >0x0D TIF> >0x21 TIF> >0x0D TIF> >0x21 TIF> >0x0D TIF> >0x21 TIF> >0x0D TIF>
 >0x21 TIF> >0x0D TIF> >0x21 TIF> >0x0D TIF> >0x21 TIF> >0x0D TIF> >0x21 TIF> >0x0D TIF> >0x21 TIF> >0x0D TIF> >0x21 TIF> >0x0D TIF> >0x21 TIF> >0x0D TIF> >0x21 TIF> >0x0D TIF> >0x21 TIF> >0x0D TIF> >0x21 TIF> >0x0D TIF> >0x21 TIF> >0x0D TIF> >0x21 TIF> >0x0D TIF> >0x21 TIF> >0x0D TIF> >0x21 TIF> >0x0D TIF> >0x21 TIF> >0x0D TIF> >0x21 TIF> >0x0D TIF> >0x21 TIF> >0x0D TIF> >0x21 TIF> >0x0D TIF> >0x21 TIF> >0x0D TIF> >0x21 TIF> >0x0D TIF> >0x21 TIF> >0x0D TIF> >0x21 TIF> >0x0D TIF> >0x21 TIF> >0x0D TIF>
 >0x21 TIF> >0x0D TIF> >0x21 TIF> >0x0D TIF> >0x21 TIF> >0x0D TIF> >0x21 TIF> >0x0D TIF> >0x21 TIF> >0x0D TIF> >0x21 TIF> >0x0D TIF> >0x21 TIF> >0x0D TIF> >0x21 TIF> >0x0D TIF> >0x21 TIF> >0x0D TIF> >0x21 TIF> >0x0D TIF> >0x21 TIF> >0x0D TIF> >0x21 TIF> >0x0D TIF> >0x21 TIF> >0x0D TIF> >0x21 TIF> >0x0D TIF> >0x21 TIF> >0x0D TIF> >0x21 TIF> >0x0D TIF> >0x21 TIF> >0x0D TIF> >0x21 TIF> >0x0D TIF> >0x21 TIF> >0x0D TIF> >0x21 TIF> >0x0D TIF> >0x21 TIF> >0x0D TIF> >0x21 TIF> >0x0D TIF> >0x21 TIF> >0x0D TIF>
 >0x21 TIF> >0x0D TIF> >0x21 TIF> >0x0D TIF> >0x21 TIF> >0x0D TIF> >0x21 TIF> >0x0D TIF> >0x21 TIF> >0x0D TIF> >0x21 TIF> >0x0D TIF> >0x21 TIF> >0x0D TIF> >0x21 TIF> >0x0D TIF> >0x21 TIF> >0x0D TIF> >0x21 TIF> >0x0D TIF> >0x21 TIF> >0x0D TIF> >0x21 TIF> >0x0D TIF> >0x21 TIF> >0x0D TIF> >0x21 TIF> >0x0D TIF> >0x21 TIF> >0x0D TIF> >0x21 TIF> >0x0D TIF> >0x21 TIF> >0x0D TIF> >0x21 TIF> >0x0D TIF> >0x21 TIF> >0x0D TIF> >0x21 TIF> >0x0D TIF> >0x21 TIF> >0x0D TIF> >0x21 TIF> >0x0D TIF> >0x21 TIF> >0x0D TIF>
 >0x21 TIF> >0x0D TIF> >0x21 TIF> >0x0D TIF> >0x21 TIF> >0x0D TIF> >0x21 TIF> >0x0D TIF> >0x21 TIF> >0x0D TIF> >0x21 TIF> >0x0D TIF> >0x21 TIF> >0x0D TIF> >0x21 TIF> >0x0D TIF> >0x28 TIF> >0x0D TIF> >0x28 TIF> >0x0D TIF> >0x28 TIF> >0x0D TIF> >0x21 TIF> >0x0D TIF> >0x21 TIF> >0x108 TIF>Found SWD-DP with ID 0x0BC11477 >0x0D TIF> >0x28 TIF> >0x0D TIF> >0x28 TIF> >0x0D TIF> >0x28 TIF> >0x0D TIF> >0x28 TIF> >0x0D TIF> >0x21 TIF> >0x0D TIF> >0x28 TIF> >0x0D TIF> >0x28 TIF> >0x0D TIF> >0x21 TIF> >0x0D TIF>
 >0x21 TIF> >0x0D TIF> >0x21 TIF>AP-IDR: 0x04770031, Type: AHB-AP >0x0D TIF> >0x28 TIF> >0x0D TIF> >0x28 TIF> >0x0D TIF> >0x28 TIF> >0x0D TIF> >0x21 TIF> >0x0D TIF> >0x21 TIF> >0x0D TIF> >0x28 TIF> >0x0D TIF> >0x21 TIF> >0x0D TIF> >0x21 TIF>Found Cortex-M0 r0p1, Little endian. -- CPU_ReadMem(4 bytes @ 0xE000EDF0) -- CPU_WriteMem(4 bytes @ 0xE000EDF0) -- CPU_ReadMem(4 bytes @ 0xE0002000)FPUnit: 2 code (BP) slots and 0 literal slots -- CPU_ReadMem(4 bytes @ 0xE000EDFC) -- CPU_WriteMem(4 bytes @ 0xE000EDFC)
 -- CPU_ReadMem(4 bytes @ 0xE0001000) -- CPU_WriteMem(4 bytes @ 0xE0001000)CoreSight components:ROMTbl 0 @ F0002000 -- CPU_ReadMem(16 bytes @ 0xF0002000) -- CPU_ReadMem(16 bytes @ 0xF0000FF0) -- CPU_ReadMem(16 bytes @ 0xF0000FE0)ROMTbl 0 [0]: FFFFE000, CID: B105900D, PID: 001BB932 MTB-M0+ -- CPU_ReadMem(16 bytes @ 0xF0001FF0) -- CPU_ReadMem(16 bytes @ 0xF0001FE0)ROMTbl 0 [1]: FFFFF000, CID: B105900D, PID: 0008E000 MTBDWT -- CPU_ReadMem(16 bytes @ 0xE00FFFF0) -- CPU_ReadMem(16 bytes @ 0xE00FFFE0)
ROMTbl 0 [2]: F00FD000, CID: B105100D, PID: 000BB4C0 ROM TableROMTbl 1 @ E00FF000 -- CPU_ReadMem(16 bytes @ 0xE00FF000) -- CPU_ReadMem(16 bytes @ 0xE000EFF0) -- CPU_ReadMem(16 bytes @ 0xE000EFE0)ROMTbl 1 [0]: FFF0F000, CID: B105E00D, PID: 000BB008 SCS -- CPU_ReadMem(16 bytes @ 0xE0001FF0) -- CPU_ReadMem(16 bytes @ 0xE0001FE0)ROMTbl 1 [1]: FFF02000, CID: B105E00D, PID: 000BB00A DWT -- CPU_ReadMem(16 bytes @ 0xE0002FF0) -- CPU_ReadMem(16 bytes @ 0xE0002FE0)
ROMTbl 1 [2]: FFF03000, CID: B105E00D, PID: 000BB00B FPB >0x0D TIF> >0x21 TIF>  returns 0x0BC11477 (0112ms, 4687ms total)
T185C 004:746 JLINK_GetDLLVersion()  returns 60005 (0000ms, 4687ms total)
T185C 004:746 JLINK_CORE_GetFound()  returns 0x60000FF (0000ms, 4687ms total)
T185C 004:746 JLINK_GetDebugInfo(0x100) -- Value=0xF0002000  returns 0x00 (0000ms, 4687ms total)
T185C 004:748 JLINK_GetDebugInfo(0x100) -- Value=0xF0002000  returns 0x00 (0000ms, 4687ms total)
T185C 004:748 JLINK_GetDebugInfo(0x101) -- Value=0x00000000  returns 0x00 (0000ms, 4687ms total)
T185C 004:748 JLINK_ReadMem (0xE0041FF0, 0x0010 Bytes, ...) -- CPU is running -- CPU_ReadMem(16 bytes @ 0xE0041FF0) - Data: 00 00 00 00 00 00 00 00 00 00 00 00 00 00 00 00  returns 0x00 (0001ms, 4688ms total)
T185C 004:749 JLINK_GetDebugInfo(0x102) -- Value=0xF0000000  returns 0x00 (0000ms, 4688ms total)
T185C 004:749 JLINK_CORE_GetFound()  returns 0x60000FF (0000ms, 4688ms total)
T185C 004:749 JLINK_GetDebugInfo(0x103) -- Value=0x00000000  returns 0x00 (0000ms, 4688ms total)
T185C 004:749 JLINK_ReadMem (0xE0040FF0, 0x0010 Bytes, ...) -- CPU is running -- CPU_ReadMem(16 bytes @ 0xE0040FF0) - Data: 00 00 00 00 00 00 00 00 00 00 00 00 00 00 00 00  returns 0x00 (0001ms, 4689ms total)
T185C 004:750 JLINK_GetDebugInfo(0x104) -- Value=0xE0000000  returns 0x00 (0000ms, 4689ms total)
T185C 004:750 JLINK_GetDebugInfo(0x105) -- Value=0xE0001000  returns 0x00 (0000ms, 4689ms total)
T185C 004:750 JLINK_GetDebugInfo(0x106) -- Value=0xE0002000  returns 0x00 (0000ms, 4689ms total)
T185C 004:750 JLINK_GetDebugInfo(0x107) -- Value=0xE000E000  returns 0x00 (0000ms, 4689ms total)
T185C 004:750 JLINK_GetDebugInfo(0x10C) -- Value=0xE000EDF0  returns 0x00 (0000ms, 4689ms total)
T185C 004:750 JLINK_ReadMemU32(0xE000ED00, 0x0001 Items, ...) -- CPU is running -- CPU_ReadMem(4 bytes @ 0xE000ED00) - Data: 01 C6 0C 41  returns 0x01 (0001ms, 4690ms total)
T185C 004:751 JLINK_SetResetType(JLINKARM_RESET_TYPE_NORMAL)  returns JLINKARM_RESET_TYPE_NORMAL (0000ms, 4690ms total)
T185C 004:751 JLINK_Reset() -- CPU is running -- CPU_WriteMem(4 bytes @ 0xE000EDF0) -- CPU is running -- CPU_WriteMem(4 bytes @ 0xE000EDFC) >0x35 TIF> -- CPU is running -- CPU_WriteMem(4 bytes @ 0xE000ED0C) -- CPU is running -- CPU_ReadMem(4 bytes @ 0xE000EDF0) -- CPU is running -- CPU_ReadMem(4 bytes @ 0xE000EDF0) -- CPU is running -- CPU_WriteMem(4 bytes @ 0xE000EDF0) -- CPU is running -- CPU_WriteMem(4 bytes @ 0xE000EDFC) -- CPU is running -- CPU_ReadMem(4 bytes @ 0xE000EDF0)
 -- CPU_ReadMem(2 bytes @ 0x40052000) -- CPU_WriteMem(4 bytes @ 0xE0002000) -- CPU_ReadMem(4 bytes @ 0xE000EDFC) -- CPU_ReadMem(4 bytes @ 0xE0001000) -- CPU_WriteMem(4 bytes @ 0xE0001000) (0021ms, 4711ms total)
T185C 004:772 JLINK_Halt()  returns 0x00 (0000ms, 4711ms total)
T185C 004:772 JLINK_IsHalted()  returns TRUE (0000ms, 4711ms total)
T185C 004:772 JLINK_ReadMemU32(0xE000EDF0, 0x0001 Items, ...) -- CPU_ReadMem(4 bytes @ 0xE000EDF0) - Data: 03 00 03 00  returns 0x01 (0000ms, 4711ms total)
T185C 004:772 JLINK_WriteU32(0xE000EDF0, 0xA05F0003) -- CPU_WriteMem(4 bytes @ 0xE000EDF0)  returns 0x00 (0001ms, 4712ms total)
T185C 004:773 JLINK_WriteU32(0xE000EDFC, 0x01000000) -- CPU_WriteMem(4 bytes @ 0xE000EDFC)  returns 0x00 (0000ms, 4712ms total)
T185C 004:781 JLINK_GetHWStatus(...)  returns 0x00 (0000ms, 4712ms total)
T185C 004:787 JLINK_GetNumBPUnits(Type = 0xFFFFFF00)  returns 0x02 (0000ms, 4712ms total)
T185C 004:787 JLINK_GetNumBPUnits(Type = 0xF0)  returns 0x2000 (0000ms, 4712ms total)
T185C 004:787 JLINK_GetNumWPUnits()  returns 0x02 (0000ms, 4712ms total)
T185C 004:792 JLINK_GetSpeed()  returns 0x595 (0000ms, 4712ms total)
T185C 004:797 JLINK_ReadMemU32(0xE000E004, 0x0001 Items, ...) -- CPU_ReadMem(4 bytes @ 0xE000E004) - Data: 00 00 00 00  returns 0x01 (0000ms, 4712ms total)
T185C 004:797 JLINK_Halt()  returns 0x00 (0000ms, 4712ms total)
T185C 004:797 JLINK_IsHalted()  returns TRUE (0000ms, 4712ms total)
T185C 004:818 JLINK_WriteMem(0x20000000, 0x053C Bytes, ...) - Data: 00 BE 0A E0 0D 78 2D 06 68 40 08 24 40 00 00 D3 ... -- CPU_WriteMem(1340 bytes @ 0x20000000)  returns 0x53C (0015ms, 4727ms total)
T185C 004:833 JLINK_WriteReg(R0, 0x00000000)  returns 0x00 (0001ms, 4728ms total)
T185C 004:834 JLINK_WriteReg(R1, 0x00B71B00)  returns 0x00 (0000ms, 4728ms total)
T185C 004:834 JLINK_WriteReg(R2, 0x00000001)  returns 0x00 (0000ms, 4728ms total)
T185C 004:834 JLINK_WriteReg(R3, 0x00000000)  returns 0x00 (0000ms, 4728ms total)
T185C 004:834 JLINK_WriteReg(R4, 0x00000000)  returns 0x00 (0000ms, 4728ms total)
T185C 004:834 JLINK_WriteReg(R5, 0x00000000)  returns 0x00 (0000ms, 4728ms total)
T185C 004:834 JLINK_WriteReg(R6, 0x00000000)  returns 0x00 (0000ms, 4728ms total)
T185C 004:834 JLINK_WriteReg(R7, 0x00000000)  returns 0x00 (0000ms, 4728ms total)
T185C 004:834 JLINK_WriteReg(R8, 0x00000000)  returns 0x00 (0000ms, 4728ms total)
T185C 004:834 JLINK_WriteReg(R9, 0x20000530)  returns 0x00 (0000ms, 4728ms total)
T185C 004:834 JLINK_WriteReg(R10, 0x00000000)  returns 0x00 (0000ms, 4728ms total)
T185C 004:834 JLINK_WriteReg(R11, 0x00000000)  returns 0x00 (0000ms, 4728ms total)
T185C 004:834 JLINK_WriteReg(R12, 0x00000000)  returns 0x00 (0000ms, 4728ms total)
T185C 004:834 JLINK_WriteReg(R13 (SP), 0x20001000)  returns 0x00 (0000ms, 4728ms total)
T185C 004:834 JLINK_WriteReg(R14, 0x20000001)  returns 0x00 (0000ms, 4728ms total)
T185C 004:834 JLINK_WriteReg(R15 (PC), 0x20000020)  returns 0x00 (0000ms, 4728ms total)
T185C 004:834 JLINK_WriteReg(XPSR, 0x01000000)  returns 0x00 (0000ms, 4728ms total)
T185C 004:834 JLINK_WriteReg(MSP, 0x20001000)  returns 0x00 (0000ms, 4728ms total)
T185C 004:834 JLINK_WriteReg(PSP, 0x20001000)  returns 0x00 (0000ms, 4728ms total)
T185C 004:834 JLINK_WriteReg(CFBP, 0x00000000)  returns 0x00 (0000ms, 4728ms total)
T185C 004:834 JLINK_SetBPEx(Addr = 0x20000000, Type = 0xFFFFFFF2) -- CPU_ReadMem(2 bytes @ 0x20000000)  returns 0x00000001 (0001ms, 4729ms total)
T185C 004:835 JLINK_Go() -- CPU_WriteMem(2 bytes @ 0x20000000) -- CPU_ReadMem(4 bytes @ 0xE0001000) -- CPU_WriteMem(4 bytes @ 0xE0001000) -- CPU_WriteMem(4 bytes @ 0xE0002008) -- CPU_WriteMem(4 bytes @ 0xE000200C) -- CPU_WriteMem(4 bytes @ 0xE0001004) (0007ms, 4736ms total)
T185C 004:842 JLINK_IsHalted() -- CPU_ReadMem(2 bytes @ 0x20000000)  returns TRUE (0005ms, 4741ms total)
T185C 004:847 JLINK_ReadReg(R15 (PC))  returns 0x20000000 (0000ms, 4736ms total)
T185C 004:847 JLINK_ClrBPEx(BPHandle = 0x00000001)  returns 0x00 (0000ms, 4736ms total)
T185C 004:847 JLINK_ReadReg(R0)  returns 0x00000000 (0000ms, 4736ms total)
T185C 004:848 JLINK_WriteReg(R0, 0x00000000)  returns 0x00 (0000ms, 4736ms total)
T185C 004:848 JLINK_WriteReg(R1, 0x00000800)  returns 0x00 (0000ms, 4736ms total)
T185C 004:848 JLINK_WriteReg(R2, 0x000000FF)  returns 0x00 (0000ms, 4736ms total)
T185C 004:848 JLINK_WriteReg(R3, 0x00000000)  returns 0x00 (0000ms, 4736ms total)
T185C 004:848 JLINK_WriteReg(R4, 0x00000000)  returns 0x00 (0000ms, 4736ms total)
T185C 004:848 JLINK_WriteReg(R5, 0x00000000)  returns 0x00 (0000ms, 4736ms total)
T185C 004:848 JLINK_WriteReg(R6, 0x00000000)  returns 0x00 (0000ms, 4736ms total)
T185C 004:848 JLINK_WriteReg(R7, 0x00000000)  returns 0x00 (0000ms, 4736ms total)
T185C 004:848 JLINK_WriteReg(R8, 0x00000000)  returns 0x00 (0000ms, 4736ms total)
T185C 004:848 JLINK_WriteReg(R9, 0x20000530)  returns 0x00 (0000ms, 4736ms total)
T185C 004:848 JLINK_WriteReg(R10, 0x00000000)  returns 0x00 (0000ms, 4736ms total)
T185C 004:848 JLINK_WriteReg(R11, 0x00000000)  returns 0x00 (0000ms, 4736ms total)
T185C 004:848 JLINK_WriteReg(R12, 0x00000000)  returns 0x00 (0000ms, 4736ms total)
T185C 004:848 JLINK_WriteReg(R13 (SP), 0x20001000)  returns 0x00 (0000ms, 4736ms total)
T185C 004:848 JLINK_WriteReg(R14, 0x20000001)  returns 0x00 (0000ms, 4736ms total)
T185C 004:848 JLINK_WriteReg(R15 (PC), 0x20000078)  returns 0x00 (0000ms, 4736ms total)
T185C 004:848 JLINK_WriteReg(XPSR, 0x01000000)  returns 0x00 (0000ms, 4736ms total)
T185C 004:848 JLINK_WriteReg(MSP, 0x20001000)  returns 0x00 (0000ms, 4736ms total)
T185C 004:848 JLINK_WriteReg(PSP, 0x20001000)  returns 0x00 (0000ms, 4736ms total)
T185C 004:848 JLINK_WriteReg(CFBP, 0x00000000)  returns 0x00 (0000ms, 4736ms total)
T185C 004:848 JLINK_SetBPEx(Addr = 0x20000000, Type = 0xFFFFFFF2)  returns 0x00000002 (0000ms, 4736ms total)
T185C 004:848 JLINK_Go() -- CPU_ReadMem(4 bytes @ 0xE0001000) -- CPU_WriteMem(4 bytes @ 0xE0001000) (0004ms, 4740ms total)
T185C 004:852 JLINK_IsHalted() -- CPU_ReadMem(2 bytes @ 0x20000000)  returns TRUE (0005ms, 4745ms total)
T185C 004:857 JLINK_ReadReg(R15 (PC))  returns 0x20000000 (0000ms, 4740ms total)
T185C 004:857 JLINK_ClrBPEx(BPHandle = 0x00000002)  returns 0x00 (0000ms, 4740ms total)
T185C 004:857 JLINK_ReadReg(R0)  returns 0x00000001 (0000ms, 4740ms total)
T185C 004:857 JLINK_WriteReg(R0, 0x00000000)  returns 0x00 (0000ms, 4740ms total)
T185C 004:857 JLINK_WriteReg(R1, 0x00000800)  returns 0x00 (0000ms, 4740ms total)
T185C 004:857 JLINK_WriteReg(R2, 0x000000FF)  returns 0x00 (0000ms, 4740ms total)
T185C 004:857 JLINK_WriteReg(R3, 0x00000000)  returns 0x00 (0000ms, 4740ms total)
T185C 004:857 JLINK_WriteReg(R4, 0x00000000)  returns 0x00 (0000ms, 4740ms total)
T185C 004:857 JLINK_WriteReg(R5, 0x00000000)  returns 0x00 (0001ms, 4741ms total)
T185C 004:858 JLINK_WriteReg(R6, 0x00000000)  returns 0x00 (0000ms, 4741ms total)
T185C 004:858 JLINK_WriteReg(R7, 0x00000000)  returns 0x00 (0000ms, 4741ms total)
T185C 004:858 JLINK_WriteReg(R8, 0x00000000)  returns 0x00 (0000ms, 4741ms total)
T185C 004:858 JLINK_WriteReg(R9, 0x20000530)  returns 0x00 (0000ms, 4741ms total)
T185C 004:858 JLINK_WriteReg(R10, 0x00000000)  returns 0x00 (0000ms, 4741ms total)
T185C 004:858 JLINK_WriteReg(R11, 0x00000000)  returns 0x00 (0000ms, 4741ms total)
T185C 004:858 JLINK_WriteReg(R12, 0x00000000)  returns 0x00 (0000ms, 4741ms total)
T185C 004:858 JLINK_WriteReg(R13 (SP), 0x20001000)  returns 0x00 (0000ms, 4741ms total)
T185C 004:858 JLINK_WriteReg(R14, 0x20000001)  returns 0x00 (0000ms, 4741ms total)
T185C 004:858 JLINK_WriteReg(R15 (PC), 0x200000CE)  returns 0x00 (0000ms, 4741ms total)
T185C 004:858 JLINK_WriteReg(XPSR, 0x01000000)  returns 0x00 (0001ms, 4742ms total)
T185C 004:859 JLINK_WriteReg(MSP, 0x20001000)  returns 0x00 (0000ms, 4742ms total)
T185C 004:859 JLINK_WriteReg(PSP, 0x20001000)  returns 0x00 (0000ms, 4742ms total)
T185C 004:859 JLINK_WriteReg(CFBP, 0x00000000)  returns 0x00 (0000ms, 4742ms total)
T185C 004:859 JLINK_SetBPEx(Addr = 0x20000000, Type = 0xFFFFFFF2)  returns 0x00000003 (0000ms, 4742ms total)
T185C 004:859 JLINK_Go() -- CPU_ReadMem(4 bytes @ 0xE0001000) -- CPU_WriteMem(4 bytes @ 0xE0001000) (0004ms, 4746ms total)
T185C 004:863 JLINK_IsHalted()  returns FALSE (0000ms, 4746ms total)
T185C 004:950 JLINK_IsHalted() -- CPU_ReadMem(2 bytes @ 0x20000000)  returns TRUE (0005ms, 4751ms total)
T185C 004:955 JLINK_ReadReg(R15 (PC))  returns 0x20000000 (0000ms, 4746ms total)
T185C 004:955 JLINK_ClrBPEx(BPHandle = 0x00000003)  returns 0x00 (0000ms, 4746ms total)
T185C 004:955 JLINK_ReadReg(R0)  returns 0x00000000 (0000ms, 4746ms total)
T185C 004:958 JLINK_WriteReg(R0, 0x00000800)  returns 0x00 (0000ms, 4746ms total)
T185C 004:958 JLINK_WriteReg(R1, 0x00000800)  returns 0x00 (0000ms, 4746ms total)
T185C 004:958 JLINK_WriteReg(R2, 0x000000FF)  returns 0x00 (0000ms, 4746ms total)
T185C 004:958 JLINK_WriteReg(R3, 0x00000000)  returns 0x00 (0000ms, 4746ms total)
T185C 004:958 JLINK_WriteReg(R4, 0x00000000)  returns 0x00 (0000ms, 4746ms total)
T185C 004:958 JLINK_WriteReg(R5, 0x00000000)  returns 0x00 (0000ms, 4746ms total)
T185C 004:958 JLINK_WriteReg(R6, 0x00000000)  returns 0x00 (0000ms, 4746ms total)
T185C 004:958 JLINK_WriteReg(R7, 0x00000000)  returns 0x00 (0000ms, 4746ms total)
T185C 004:958 JLINK_WriteReg(R8, 0x00000000)  returns 0x00 (0000ms, 4746ms total)
T185C 004:958 JLINK_WriteReg(R9, 0x20000530)  returns 0x00 (0000ms, 4746ms total)
T185C 004:958 JLINK_WriteReg(R10, 0x00000000)  returns 0x00 (0000ms, 4746ms total)
T185C 004:958 JLINK_WriteReg(R11, 0x00000000)  returns 0x00 (0000ms, 4746ms total)
T185C 004:958 JLINK_WriteReg(R12, 0x00000000)  returns 0x00 (0000ms, 4746ms total)
T185C 004:958 JLINK_WriteReg(R13 (SP), 0x20001000)  returns 0x00 (0000ms, 4746ms total)
T185C 004:958 JLINK_WriteReg(R14, 0x20000001)  returns 0x00 (0000ms, 4746ms total)
T185C 004:958 JLINK_WriteReg(R15 (PC), 0x20000078)  returns 0x00 (0000ms, 4746ms total)
T185C 004:958 JLINK_WriteReg(XPSR, 0x01000000)  returns 0x00 (0000ms, 4746ms total)
T185C 004:958 JLINK_WriteReg(MSP, 0x20001000)  returns 0x00 (0000ms, 4746ms total)
T185C 004:958 JLINK_WriteReg(PSP, 0x20001000)  returns 0x00 (0000ms, 4746ms total)
T185C 004:958 JLINK_WriteReg(CFBP, 0x00000000)  returns 0x00 (0000ms, 4746ms total)
T185C 004:958 JLINK_SetBPEx(Addr = 0x20000000, Type = 0xFFFFFFF2)  returns 0x00000004 (0000ms, 4746ms total)
T185C 004:958 JLINK_Go() -- CPU_ReadMem(4 bytes @ 0xE0001000) -- CPU_WriteMem(4 bytes @ 0xE0001000) (0004ms, 4750ms total)
T185C 004:962 JLINK_IsHalted() -- CPU_ReadMem(2 bytes @ 0x20000000)  returns TRUE (0005ms, 4755ms total)
T185C 004:967 JLINK_ReadReg(R15 (PC))  returns 0x20000000 (0000ms, 4750ms total)
T185C 004:967 JLINK_ClrBPEx(BPHandle = 0x00000004)  returns 0x00 (0000ms, 4750ms total)
T185C 004:967 JLINK_ReadReg(R0)  returns 0x00000001 (0000ms, 4750ms total)
T185C 004:967 JLINK_WriteReg(R0, 0x00000800)  returns 0x00 (0001ms, 4751ms total)
T185C 004:968 JLINK_WriteReg(R1, 0x00000800)  returns 0x00 (0000ms, 4751ms total)
T185C 004:968 JLINK_WriteReg(R2, 0x000000FF)  returns 0x00 (0000ms, 4751ms total)
T185C 004:968 JLINK_WriteReg(R3, 0x00000000)  returns 0x00 (0000ms, 4751ms total)
T185C 004:968 JLINK_WriteReg(R4, 0x00000000)  returns 0x00 (0000ms, 4751ms total)
T185C 004:968 JLINK_WriteReg(R5, 0x00000000)  returns 0x00 (0000ms, 4751ms total)
T185C 004:968 JLINK_WriteReg(R6, 0x00000000)  returns 0x00 (0000ms, 4751ms total)
T185C 004:968 JLINK_WriteReg(R7, 0x00000000)  returns 0x00 (0000ms, 4751ms total)
T185C 004:968 JLINK_WriteReg(R8, 0x00000000)  returns 0x00 (0000ms, 4751ms total)
T185C 004:968 JLINK_WriteReg(R9, 0x20000530)  returns 0x00 (0000ms, 4751ms total)
T185C 004:968 JLINK_WriteReg(R10, 0x00000000)  returns 0x00 (0000ms, 4751ms total)
T185C 004:968 JLINK_WriteReg(R11, 0x00000000)  returns 0x00 (0000ms, 4751ms total)
T185C 004:968 JLINK_WriteReg(R12, 0x00000000)  returns 0x00 (0000ms, 4751ms total)
T185C 004:968 JLINK_WriteReg(R13 (SP), 0x20001000)  returns 0x00 (0000ms, 4751ms total)
T185C 004:968 JLINK_WriteReg(R14, 0x20000001)  returns 0x00 (0000ms, 4751ms total)
T185C 004:968 JLINK_WriteReg(R15 (PC), 0x200000CE)  returns 0x00 (0000ms, 4751ms total)
T185C 004:968 JLINK_WriteReg(XPSR, 0x01000000)  returns 0x00 (0000ms, 4751ms total)
T185C 004:968 JLINK_WriteReg(MSP, 0x20001000)  returns 0x00 (0000ms, 4751ms total)
T185C 004:968 JLINK_WriteReg(PSP, 0x20001000)  returns 0x00 (0000ms, 4751ms total)
T185C 004:968 JLINK_WriteReg(CFBP, 0x00000000)  returns 0x00 (0000ms, 4751ms total)
T185C 004:968 JLINK_SetBPEx(Addr = 0x20000000, Type = 0xFFFFFFF2)  returns 0x00000005 (0000ms, 4751ms total)
T185C 004:968 JLINK_Go() -- CPU_ReadMem(4 bytes @ 0xE0001000) -- CPU_WriteMem(4 bytes @ 0xE0001000) (0004ms, 4755ms total)
T185C 004:972 JLINK_IsHalted()  returns FALSE (0001ms, 4756ms total)
T185C 004:975 JLINK_IsHalted()  returns FALSE (0001ms, 4756ms total)
T185C 004:982 JLINK_IsHalted() -- CPU_ReadMem(2 bytes @ 0x20000000)  returns TRUE (0005ms, 4760ms total)
T185C 004:987 JLINK_ReadReg(R15 (PC))  returns 0x20000000 (0000ms, 4755ms total)
T185C 004:987 JLINK_ClrBPEx(BPHandle = 0x00000005)  returns 0x00 (0000ms, 4755ms total)
T185C 004:987 JLINK_ReadReg(R0)  returns 0x00000000 (0000ms, 4755ms total)
T185C 004:988 JLINK_WriteReg(R0, 0x00001000)  returns 0x00 (0000ms, 4755ms total)
T185C 004:988 JLINK_WriteReg(R1, 0x00000800)  returns 0x00 (0000ms, 4755ms total)
T185C 004:988 JLINK_WriteReg(R2, 0x000000FF)  returns 0x00 (0000ms, 4755ms total)
T185C 004:988 JLINK_WriteReg(R3, 0x00000000)  returns 0x00 (0000ms, 4755ms total)
T185C 004:988 JLINK_WriteReg(R4, 0x00000000)  returns 0x00 (0000ms, 4755ms total)
T185C 004:988 JLINK_WriteReg(R5, 0x00000000)  returns 0x00 (0000ms, 4755ms total)
T185C 004:988 JLINK_WriteReg(R6, 0x00000000)  returns 0x00 (0000ms, 4755ms total)
T185C 004:988 JLINK_WriteReg(R7, 0x00000000)  returns 0x00 (0000ms, 4755ms total)
T185C 004:988 JLINK_WriteReg(R8, 0x00000000)  returns 0x00 (0000ms, 4755ms total)
T185C 004:988 JLINK_WriteReg(R9, 0x20000530)  returns 0x00 (0000ms, 4755ms total)
T185C 004:988 JLINK_WriteReg(R10, 0x00000000)  returns 0x00 (0000ms, 4755ms total)
T185C 004:988 JLINK_WriteReg(R11, 0x00000000)  returns 0x00 (0000ms, 4755ms total)
T185C 004:988 JLINK_WriteReg(R12, 0x00000000)  returns 0x00 (0000ms, 4755ms total)
T185C 004:988 JLINK_WriteReg(R13 (SP), 0x20001000)  returns 0x00 (0000ms, 4755ms total)
T185C 004:988 JLINK_WriteReg(R14, 0x20000001)  returns 0x00 (0001ms, 4756ms total)
T185C 004:989 JLINK_WriteReg(R15 (PC), 0x20000078)  returns 0x00 (0000ms, 4756ms total)
T185C 004:989 JLINK_WriteReg(XPSR, 0x01000000)  returns 0x00 (0000ms, 4756ms total)
T185C 004:989 JLINK_WriteReg(MSP, 0x20001000)  returns 0x00 (0000ms, 4756ms total)
T185C 004:989 JLINK_WriteReg(PSP, 0x20001000)  returns 0x00 (0000ms, 4756ms total)
T185C 004:989 JLINK_WriteReg(CFBP, 0x00000000)  returns 0x00 (0000ms, 4756ms total)
T185C 004:989 JLINK_SetBPEx(Addr = 0x20000000, Type = 0xFFFFFFF2)  returns 0x00000006 (0000ms, 4756ms total)
T185C 004:989 JLINK_Go() -- CPU_ReadMem(4 bytes @ 0xE0001000) -- CPU_WriteMem(4 bytes @ 0xE0001000) (0003ms, 4759ms total)
T185C 004:992 JLINK_IsHalted() -- CPU_ReadMem(2 bytes @ 0x20000000)  returns TRUE (0006ms, 4765ms total)
T185C 004:998 JLINK_ReadReg(R15 (PC))  returns 0x20000000 (0000ms, 4759ms total)
T185C 004:998 JLINK_ClrBPEx(BPHandle = 0x00000006)  returns 0x00 (0000ms, 4759ms total)
T185C 004:998 JLINK_ReadReg(R0)  returns 0x00000001 (0000ms, 4759ms total)
T185C 004:998 JLINK_WriteReg(R0, 0x00001000)  returns 0x00 (0000ms, 4759ms total)
T185C 004:998 JLINK_WriteReg(R1, 0x00000800)  returns 0x00 (0000ms, 4759ms total)
T185C 004:998 JLINK_WriteReg(R2, 0x000000FF)  returns 0x00 (0000ms, 4759ms total)
T185C 004:998 JLINK_WriteReg(R3, 0x00000000)  returns 0x00 (0000ms, 4759ms total)
T185C 004:998 JLINK_WriteReg(R4, 0x00000000)  returns 0x00 (0000ms, 4759ms total)
T185C 004:998 JLINK_WriteReg(R5, 0x00000000)  returns 0x00 (0000ms, 4759ms total)
T185C 004:998 JLINK_WriteReg(R6, 0x00000000)  returns 0x00 (0000ms, 4759ms total)
T185C 004:998 JLINK_WriteReg(R7, 0x00000000)  returns 0x00 (0000ms, 4759ms total)
T185C 004:998 JLINK_WriteReg(R8, 0x00000000)  returns 0x00 (0000ms, 4759ms total)
T185C 004:998 JLINK_WriteReg(R9, 0x20000530)  returns 0x00 (0000ms, 4759ms total)
T185C 004:998 JLINK_WriteReg(R10, 0x00000000)  returns 0x00 (0001ms, 4760ms total)
T185C 004:999 JLINK_WriteReg(R11, 0x00000000)  returns 0x00 (0000ms, 4760ms total)
T185C 004:999 JLINK_WriteReg(R12, 0x00000000)  returns 0x00 (0000ms, 4760ms total)
T185C 004:999 JLINK_WriteReg(R13 (SP), 0x20001000)  returns 0x00 (0000ms, 4760ms total)
T185C 004:999 JLINK_WriteReg(R14, 0x20000001)  returns 0x00 (0000ms, 4760ms total)
T185C 004:999 JLINK_WriteReg(R15 (PC), 0x200000CE)  returns 0x00 (0000ms, 4760ms total)
T185C 004:999 JLINK_WriteReg(XPSR, 0x01000000)  returns 0x00 (0000ms, 4760ms total)
T185C 004:999 JLINK_WriteReg(MSP, 0x20001000)  returns 0x00 (0000ms, 4760ms total)
T185C 004:999 JLINK_WriteReg(PSP, 0x20001000)  returns 0x00 (0000ms, 4760ms total)
T185C 004:999 JLINK_WriteReg(CFBP, 0x00000000)  returns 0x00 (0000ms, 4760ms total)
T185C 004:999 JLINK_SetBPEx(Addr = 0x20000000, Type = 0xFFFFFFF2)  returns 0x00000007 (0000ms, 4760ms total)
T185C 004:999 JLINK_Go() -- CPU_ReadMem(4 bytes @ 0xE0001000) -- CPU_WriteMem(4 bytes @ 0xE0001000) (0004ms, 4764ms total)
T185C 005:003 JLINK_IsHalted()  returns FALSE (0000ms, 4764ms total)
T185C 005:008 JLINK_IsHalted() -- CPU_ReadMem(2 bytes @ 0x20000000)  returns TRUE (0005ms, 4769ms total)
T185C 005:013 JLINK_ReadReg(R15 (PC))  returns 0x20000000 (0000ms, 4764ms total)
T185C 005:013 JLINK_ClrBPEx(BPHandle = 0x00000007)  returns 0x00 (0000ms, 4764ms total)
T185C 005:013 JLINK_ReadReg(R0)  returns 0x00000000 (0001ms, 4765ms total)
T185C 005:014 JLINK_WriteReg(R0, 0x00001800)  returns 0x00 (0000ms, 4765ms total)
T185C 005:014 JLINK_WriteReg(R1, 0x00000800)  returns 0x00 (0000ms, 4765ms total)
T185C 005:014 JLINK_WriteReg(R2, 0x000000FF)  returns 0x00 (0000ms, 4765ms total)
T185C 005:014 JLINK_WriteReg(R3, 0x00000000)  returns 0x00 (0000ms, 4765ms total)
T185C 005:014 JLINK_WriteReg(R4, 0x00000000)  returns 0x00 (0000ms, 4765ms total)
T185C 005:014 JLINK_WriteReg(R5, 0x00000000)  returns 0x00 (0000ms, 4765ms total)
T185C 005:014 JLINK_WriteReg(R6, 0x00000000)  returns 0x00 (0000ms, 4765ms total)
T185C 005:014 JLINK_WriteReg(R7, 0x00000000)  returns 0x00 (0000ms, 4765ms total)
T185C 005:014 JLINK_WriteReg(R8, 0x00000000)  returns 0x00 (0000ms, 4765ms total)
T185C 005:014 JLINK_WriteReg(R9, 0x20000530)  returns 0x00 (0000ms, 4765ms total)
T185C 005:014 JLINK_WriteReg(R10, 0x00000000)  returns 0x00 (0000ms, 4765ms total)
T185C 005:014 JLINK_WriteReg(R11, 0x00000000)  returns 0x00 (0000ms, 4765ms total)
T185C 005:014 JLINK_WriteReg(R12, 0x00000000)  returns 0x00 (0001ms, 4766ms total)
T185C 005:015 JLINK_WriteReg(R13 (SP), 0x20001000)  returns 0x00 (0000ms, 4766ms total)
T185C 005:015 JLINK_WriteReg(R14, 0x20000001)  returns 0x00 (0000ms, 4766ms total)
T185C 005:015 JLINK_WriteReg(R15 (PC), 0x20000078)  returns 0x00 (0000ms, 4766ms total)
T185C 005:015 JLINK_WriteReg(XPSR, 0x01000000)  returns 0x00 (0000ms, 4766ms total)
T185C 005:015 JLINK_WriteReg(MSP, 0x20001000)  returns 0x00 (0000ms, 4766ms total)
T185C 005:015 JLINK_WriteReg(PSP, 0x20001000)  returns 0x00 (0000ms, 4766ms total)
T185C 005:015 JLINK_WriteReg(CFBP, 0x00000000)  returns 0x00 (0000ms, 4766ms total)
T185C 005:015 JLINK_SetBPEx(Addr = 0x20000000, Type = 0xFFFFFFF2)  returns 0x00000008 (0000ms, 4766ms total)
T185C 005:015 JLINK_Go() -- CPU_ReadMem(4 bytes @ 0xE0001000) -- CPU_WriteMem(4 bytes @ 0xE0001000) (0003ms, 4769ms total)
T185C 005:019 JLINK_IsHalted() -- CPU_ReadMem(2 bytes @ 0x20000000)  returns TRUE (0006ms, 4775ms total)
T185C 005:025 JLINK_ReadReg(R15 (PC))  returns 0x20000000 (0000ms, 4769ms total)
T185C 005:025 JLINK_ClrBPEx(BPHandle = 0x00000008)  returns 0x00 (0000ms, 4769ms total)
T185C 005:025 JLINK_ReadReg(R0)  returns 0x00000001 (0000ms, 4769ms total)
T185C 005:025 JLINK_WriteReg(R0, 0x00001800)  returns 0x00 (0000ms, 4769ms total)
T185C 005:025 JLINK_WriteReg(R1, 0x00000800)  returns 0x00 (0000ms, 4769ms total)
T185C 005:025 JLINK_WriteReg(R2, 0x000000FF)  returns 0x00 (0000ms, 4769ms total)
T185C 005:025 JLINK_WriteReg(R3, 0x00000000)  returns 0x00 (0000ms, 4769ms total)
T185C 005:025 JLINK_WriteReg(R4, 0x00000000)  returns 0x00 (0000ms, 4769ms total)
T185C 005:025 JLINK_WriteReg(R5, 0x00000000)  returns 0x00 (0000ms, 4769ms total)
T185C 005:025 JLINK_WriteReg(R6, 0x00000000)  returns 0x00 (0000ms, 4769ms total)
T185C 005:025 JLINK_WriteReg(R7, 0x00000000)  returns 0x00 (0000ms, 4769ms total)
T185C 005:025 JLINK_WriteReg(R8, 0x00000000)  returns 0x00 (0000ms, 4769ms total)
T185C 005:025 JLINK_WriteReg(R9, 0x20000530)  returns 0x00 (0000ms, 4769ms total)
T185C 005:025 JLINK_WriteReg(R10, 0x00000000)  returns 0x00 (0000ms, 4769ms total)
T185C 005:025 JLINK_WriteReg(R11, 0x00000000)  returns 0x00 (0000ms, 4769ms total)
T185C 005:025 JLINK_WriteReg(R12, 0x00000000)  returns 0x00 (0000ms, 4769ms total)
T185C 005:025 JLINK_WriteReg(R13 (SP), 0x20001000)  returns 0x00 (0000ms, 4769ms total)
T185C 005:025 JLINK_WriteReg(R14, 0x20000001)  returns 0x00 (0000ms, 4769ms total)
T185C 005:025 JLINK_WriteReg(R15 (PC), 0x200000CE)  returns 0x00 (0000ms, 4769ms total)
T185C 005:025 JLINK_WriteReg(XPSR, 0x01000000)  returns 0x00 (0000ms, 4769ms total)
T185C 005:025 JLINK_WriteReg(MSP, 0x20001000)  returns 0x00 (0000ms, 4769ms total)
T185C 005:025 JLINK_WriteReg(PSP, 0x20001000)  returns 0x00 (0000ms, 4769ms total)
T185C 005:025 JLINK_WriteReg(CFBP, 0x00000000)  returns 0x00 (0000ms, 4769ms total)
T185C 005:025 JLINK_SetBPEx(Addr = 0x20000000, Type = 0xFFFFFFF2)  returns 0x00000009 (0000ms, 4769ms total)
T185C 005:025 JLINK_Go() -- CPU_ReadMem(4 bytes @ 0xE0001000) -- CPU_WriteMem(4 bytes @ 0xE0001000) (0004ms, 4773ms total)
T185C 005:029 JLINK_IsHalted()  returns FALSE (0000ms, 4773ms total)
T185C 005:034 JLINK_IsHalted()  returns FALSE (0001ms, 4774ms total)
T185C 005:036 JLINK_IsHalted() -- CPU_ReadMem(2 bytes @ 0x20000000)  returns TRUE (0005ms, 4778ms total)
T185C 005:042 JLINK_ReadReg(R15 (PC))  returns 0x20000000 (0000ms, 4773ms total)
T185C 005:042 JLINK_ClrBPEx(BPHandle = 0x00000009)  returns 0x00 (0000ms, 4773ms total)
T185C 005:042 JLINK_ReadReg(R0)  returns 0x00000000 (0000ms, 4773ms total)
T185C 005:042 JLINK_WriteReg(R0, 0x00000001)  returns 0x00 (0000ms, 4773ms total)
T185C 005:042 JLINK_WriteReg(R1, 0x00000800)  returns 0x00 (0000ms, 4773ms total)
T185C 005:042 JLINK_WriteReg(R2, 0x000000FF)  returns 0x00 (0000ms, 4773ms total)
T185C 005:042 JLINK_WriteReg(R3, 0x00000000)  returns 0x00 (0000ms, 4773ms total)
T185C 005:042 JLINK_WriteReg(R4, 0x00000000)  returns 0x00 (0000ms, 4773ms total)
T185C 005:042 JLINK_WriteReg(R5, 0x00000000)  returns 0x00 (0000ms, 4773ms total)
T185C 005:042 JLINK_WriteReg(R6, 0x00000000)  returns 0x00 (0000ms, 4773ms total)
T185C 005:042 JLINK_WriteReg(R7, 0x00000000)  returns 0x00 (0000ms, 4773ms total)
T185C 005:042 JLINK_WriteReg(R8, 0x00000000)  returns 0x00 (0000ms, 4773ms total)
T185C 005:042 JLINK_WriteReg(R9, 0x20000530)  returns 0x00 (0000ms, 4773ms total)
T185C 005:042 JLINK_WriteReg(R10, 0x00000000)  returns 0x00 (0000ms, 4773ms total)
T185C 005:042 JLINK_WriteReg(R11, 0x00000000)  returns 0x00 (0000ms, 4773ms total)
T185C 005:042 JLINK_WriteReg(R12, 0x00000000)  returns 0x00 (0000ms, 4773ms total)
T185C 005:043 JLINK_WriteReg(R13 (SP), 0x20001000)  returns 0x00 (0000ms, 4774ms total)
T185C 005:043 JLINK_WriteReg(R14, 0x20000001)  returns 0x00 (0000ms, 4774ms total)
T185C 005:043 JLINK_WriteReg(R15 (PC), 0x20000074)  returns 0x00 (0000ms, 4774ms total)
T185C 005:043 JLINK_WriteReg(XPSR, 0x01000000)  returns 0x00 (0000ms, 4774ms total)
T185C 005:043 JLINK_WriteReg(MSP, 0x20001000)  returns 0x00 (0000ms, 4774ms total)
T185C 005:043 JLINK_WriteReg(PSP, 0x20001000)  returns 0x00 (0000ms, 4774ms total)
T185C 005:043 JLINK_WriteReg(CFBP, 0x00000000)  returns 0x00 (0000ms, 4774ms total)
T185C 005:043 JLINK_SetBPEx(Addr = 0x20000000, Type = 0xFFFFFFF2)  returns 0x0000000A (0000ms, 4774ms total)
T185C 005:043 JLINK_Go() -- CPU_ReadMem(4 bytes @ 0xE0001000) -- CPU_WriteMem(4 bytes @ 0xE0001000) (0004ms, 4778ms total)
T185C 005:047 JLINK_IsHalted() -- CPU_ReadMem(2 bytes @ 0x20000000)  returns TRUE (0005ms, 4783ms total)
T185C 005:052 JLINK_ReadReg(R15 (PC))  returns 0x20000000 (0000ms, 4778ms total)
T185C 005:052 JLINK_ClrBPEx(BPHandle = 0x0000000A)  returns 0x00 (0000ms, 4778ms total)
T185C 005:052 JLINK_ReadReg(R0)  returns 0x00000000 (0000ms, 4778ms total)
T185C 005:107 JLINK_WriteMem(0x20000000, 0x053C Bytes, ...) - Data: 00 BE 0A E0 0D 78 2D 06 68 40 08 24 40 00 00 D3 ... -- CPU_WriteMem(1340 bytes @ 0x20000000)  returns 0x53C (0015ms, 4793ms total)
T185C 005:122 JLINK_WriteReg(R0, 0x00000000)  returns 0x00 (0000ms, 4793ms total)
T185C 005:122 JLINK_WriteReg(R1, 0x00B71B00)  returns 0x00 (0000ms, 4793ms total)
T185C 005:122 JLINK_WriteReg(R2, 0x00000002)  returns 0x00 (0000ms, 4793ms total)
T185C 005:122 JLINK_WriteReg(R3, 0x00000000)  returns 0x00 (0000ms, 4793ms total)
T185C 005:122 JLINK_WriteReg(R4, 0x00000000)  returns 0x00 (0000ms, 4793ms total)
T185C 005:122 JLINK_WriteReg(R5, 0x00000000)  returns 0x00 (0001ms, 4794ms total)
T185C 005:123 JLINK_WriteReg(R6, 0x00000000)  returns 0x00 (0000ms, 4794ms total)
T185C 005:123 JLINK_WriteReg(R7, 0x00000000)  returns 0x00 (0000ms, 4794ms total)
T185C 005:123 JLINK_WriteReg(R8, 0x00000000)  returns 0x00 (0000ms, 4794ms total)
T185C 005:123 JLINK_WriteReg(R9, 0x20000530)  returns 0x00 (0000ms, 4794ms total)
T185C 005:123 JLINK_WriteReg(R10, 0x00000000)  returns 0x00 (0000ms, 4794ms total)
T185C 005:123 JLINK_WriteReg(R11, 0x00000000)  returns 0x00 (0000ms, 4794ms total)
T185C 005:123 JLINK_WriteReg(R12, 0x00000000)  returns 0x00 (0000ms, 4794ms total)
T185C 005:123 JLINK_WriteReg(R13 (SP), 0x20001000)  returns 0x00 (0000ms, 4794ms total)
T185C 005:123 JLINK_WriteReg(R14, 0x20000001)  returns 0x00 (0000ms, 4794ms total)
T185C 005:123 JLINK_WriteReg(R15 (PC), 0x20000020)  returns 0x00 (0000ms, 4794ms total)
T185C 005:123 JLINK_WriteReg(XPSR, 0x01000000)  returns 0x00 (0000ms, 4794ms total)
T185C 005:123 JLINK_WriteReg(MSP, 0x20001000)  returns 0x00 (0000ms, 4794ms total)
T185C 005:123 JLINK_WriteReg(PSP, 0x20001000)  returns 0x00 (0000ms, 4794ms total)
T185C 005:123 JLINK_WriteReg(CFBP, 0x00000000)  returns 0x00 (0000ms, 4794ms total)
T185C 005:123 JLINK_SetBPEx(Addr = 0x20000000, Type = 0xFFFFFFF2) -- CPU_ReadMem(2 bytes @ 0x20000000)  returns 0x0000000B (0001ms, 4795ms total)
T185C 005:124 JLINK_Go() -- CPU_WriteMem(2 bytes @ 0x20000000) -- CPU_ReadMem(4 bytes @ 0xE0001000) -- CPU_WriteMem(4 bytes @ 0xE0001000) (0003ms, 4798ms total)
T185C 005:127 JLINK_IsHalted() -- CPU_ReadMem(2 bytes @ 0x20000000)  returns TRUE (0005ms, 4803ms total)
T185C 005:132 JLINK_ReadReg(R15 (PC))  returns 0x20000000 (0000ms, 4798ms total)
T185C 005:132 JLINK_ClrBPEx(BPHandle = 0x0000000B)  returns 0x00 (0000ms, 4798ms total)
T185C 005:132 JLINK_ReadReg(R0)  returns 0x00000000 (0000ms, 4798ms total)
T185C 005:133 JLINK_WriteMem(0x20000560, 0x0200 Bytes, ...) - Data: F0 AD FF 1F 15 02 00 00 27 02 00 00 29 02 00 00 ... -- CPU_WriteMem(512 bytes @ 0x20000560)  returns 0x200 (0006ms, 4804ms total)
T185C 005:139 JLINK_WriteReg(R0, 0x00000000)  returns 0x00 (0000ms, 4804ms total)
T185C 005:139 JLINK_WriteReg(R1, 0x00000200)  returns 0x00 (0000ms, 4804ms total)
T185C 005:139 JLINK_WriteReg(R2, 0x20000560)  returns 0x00 (0000ms, 4804ms total)
T185C 005:139 JLINK_WriteReg(R3, 0x00000000)  returns 0x00 (0000ms, 4804ms total)
T185C 005:139 JLINK_WriteReg(R4, 0x00000000)  returns 0x00 (0000ms, 4804ms total)
T185C 005:139 JLINK_WriteReg(R5, 0x00000000)  returns 0x00 (0000ms, 4804ms total)
T185C 005:139 JLINK_WriteReg(R6, 0x00000000)  returns 0x00 (0000ms, 4804ms total)
T185C 005:139 JLINK_WriteReg(R7, 0x00000000)  returns 0x00 (0000ms, 4804ms total)
T185C 005:139 JLINK_WriteReg(R8, 0x00000000)  returns 0x00 (0000ms, 4804ms total)
T185C 005:139 JLINK_WriteReg(R9, 0x20000530)  returns 0x00 (0000ms, 4804ms total)
T185C 005:139 JLINK_WriteReg(R10, 0x00000000)  returns 0x00 (0000ms, 4804ms total)
T185C 005:139 JLINK_WriteReg(R11, 0x00000000)  returns 0x00 (0000ms, 4804ms total)
T185C 005:139 JLINK_WriteReg(R12, 0x00000000)  returns 0x00 (0000ms, 4804ms total)
T185C 005:139 JLINK_WriteReg(R13 (SP), 0x20001000)  returns 0x00 (0000ms, 4804ms total)
T185C 005:139 JLINK_WriteReg(R14, 0x20000001)  returns 0x00 (0000ms, 4804ms total)
T185C 005:139 JLINK_WriteReg(R15 (PC), 0x200000EC)  returns 0x00 (0000ms, 4804ms total)
T185C 005:139 JLINK_WriteReg(XPSR, 0x01000000)  returns 0x00 (0000ms, 4804ms total)
T185C 005:139 JLINK_WriteReg(MSP, 0x20001000)  returns 0x00 (0000ms, 4804ms total)
T185C 005:139 JLINK_WriteReg(PSP, 0x20001000)  returns 0x00 (0000ms, 4804ms total)
T185C 005:139 JLINK_WriteReg(CFBP, 0x00000000)  returns 0x00 (0000ms, 4804ms total)
T185C 005:139 JLINK_SetBPEx(Addr = 0x20000000, Type = 0xFFFFFFF2)  returns 0x0000000C (0000ms, 4804ms total)
T185C 005:140 JLINK_Go() -- CPU_ReadMem(4 bytes @ 0xE0001000) -- CPU_WriteMem(4 bytes @ 0xE0001000) (0003ms, 4808ms total)
T185C 005:143 JLINK_IsHalted()  returns FALSE (0000ms, 4808ms total)
T185C 005:149 JLINK_IsHalted()  returns FALSE (0000ms, 4808ms total)
T185C 005:151 JLINK_IsHalted() -- CPU_ReadMem(2 bytes @ 0x20000000)  returns TRUE (0006ms, 4814ms total)
T185C 005:157 JLINK_ReadReg(R15 (PC))  returns 0x20000000 (0000ms, 4808ms total)
T185C 005:157 JLINK_ClrBPEx(BPHandle = 0x0000000C)  returns 0x00 (0000ms, 4808ms total)
T185C 005:157 JLINK_ReadReg(R0)  returns 0x00000000 (0000ms, 4808ms total)
T185C 005:157 JLINK_WriteMem(0x20000560, 0x0200 Bytes, ...) - Data: 01 C5 36 1F 03 E0 21 78 29 70 64 1C 6D 1C 76 1E ... -- CPU_WriteMem(512 bytes @ 0x20000560)  returns 0x200 (0006ms, 4814ms total)
T185C 005:163 JLINK_WriteReg(R0, 0x00000200)  returns 0x00 (0001ms, 4815ms total)
T185C 005:164 JLINK_WriteReg(R1, 0x00000200)  returns 0x00 (0000ms, 4815ms total)
T185C 005:164 JLINK_WriteReg(R2, 0x20000560)  returns 0x00 (0000ms, 4815ms total)
T185C 005:164 JLINK_WriteReg(R3, 0x00000000)  returns 0x00 (0000ms, 4815ms total)
T185C 005:164 JLINK_WriteReg(R4, 0x00000000)  returns 0x00 (0000ms, 4815ms total)
T185C 005:164 JLINK_WriteReg(R5, 0x00000000)  returns 0x00 (0000ms, 4815ms total)
T185C 005:164 JLINK_WriteReg(R6, 0x00000000)  returns 0x00 (0000ms, 4815ms total)
T185C 005:164 JLINK_WriteReg(R7, 0x00000000)  returns 0x00 (0000ms, 4815ms total)
T185C 005:164 JLINK_WriteReg(R8, 0x00000000)  returns 0x00 (0000ms, 4815ms total)
T185C 005:164 JLINK_WriteReg(R9, 0x20000530)  returns 0x00 (0000ms, 4815ms total)
T185C 005:164 JLINK_WriteReg(R10, 0x00000000)  returns 0x00 (0000ms, 4815ms total)
T185C 005:164 JLINK_WriteReg(R11, 0x00000000)  returns 0x00 (0000ms, 4815ms total)
T185C 005:164 JLINK_WriteReg(R12, 0x00000000)  returns 0x00 (0000ms, 4815ms total)
T185C 005:164 JLINK_WriteReg(R13 (SP), 0x20001000)  returns 0x00 (0000ms, 4815ms total)
T185C 005:164 JLINK_WriteReg(R14, 0x20000001)  returns 0x00 (0000ms, 4815ms total)
T185C 005:164 JLINK_WriteReg(R15 (PC), 0x200000EC)  returns 0x00 (0000ms, 4815ms total)
T185C 005:164 JLINK_WriteReg(XPSR, 0x01000000)  returns 0x00 (0000ms, 4815ms total)
T185C 005:164 JLINK_WriteReg(MSP, 0x20001000)  returns 0x00 (0000ms, 4815ms total)
T185C 005:164 JLINK_WriteReg(PSP, 0x20001000)  returns 0x00 (0000ms, 4815ms total)
T185C 005:164 JLINK_WriteReg(CFBP, 0x00000000)  returns 0x00 (0000ms, 4815ms total)
T185C 005:164 JLINK_SetBPEx(Addr = 0x20000000, Type = 0xFFFFFFF2)  returns 0x0000000D (0000ms, 4815ms total)
T185C 005:164 JLINK_Go() -- CPU_ReadMem(4 bytes @ 0xE0001000) -- CPU_WriteMem(4 bytes @ 0xE0001000) (0004ms, 4819ms total)
T185C 005:168 JLINK_IsHalted()  returns FALSE (0000ms, 4819ms total)
T185C 005:172 JLINK_IsHalted()  returns FALSE (0001ms, 4820ms total)
T185C 005:174 JLINK_IsHalted()  returns FALSE (0001ms, 4820ms total)
T185C 005:176 JLINK_IsHalted() -- CPU_ReadMem(2 bytes @ 0x20000000)  returns TRUE (0006ms, 4825ms total)
T185C 005:182 JLINK_ReadReg(R15 (PC))  returns 0x20000000 (0000ms, 4819ms total)
T185C 005:182 JLINK_ClrBPEx(BPHandle = 0x0000000D)  returns 0x00 (0000ms, 4819ms total)
T185C 005:182 JLINK_ReadReg(R0)  returns 0x00000000 (0000ms, 4819ms total)
T185C 005:183 JLINK_WriteMem(0x20000560, 0x0200 Bytes, ...) - Data: FF FF FF FF FF FF FF FF FF FF FF FF FE FF FF FF ... -- CPU_WriteMem(512 bytes @ 0x20000560)  returns 0x200 (0006ms, 4825ms total)
T185C 005:189 JLINK_WriteReg(R0, 0x00000400)  returns 0x00 (0000ms, 4825ms total)
T185C 005:189 JLINK_WriteReg(R1, 0x00000200)  returns 0x00 (0000ms, 4825ms total)
T185C 005:189 JLINK_WriteReg(R2, 0x20000560)  returns 0x00 (0000ms, 4825ms total)
T185C 005:189 JLINK_WriteReg(R3, 0x00000000)  returns 0x00 (0000ms, 4825ms total)
T185C 005:189 JLINK_WriteReg(R4, 0x00000000)  returns 0x00 (0000ms, 4825ms total)
T185C 005:189 JLINK_WriteReg(R5, 0x00000000)  returns 0x00 (0000ms, 4825ms total)
T185C 005:189 JLINK_WriteReg(R6, 0x00000000)  returns 0x00 (0000ms, 4825ms total)
T185C 005:189 JLINK_WriteReg(R7, 0x00000000)  returns 0x00 (0000ms, 4825ms total)
T185C 005:189 JLINK_WriteReg(R8, 0x00000000)  returns 0x00 (0000ms, 4825ms total)
T185C 005:189 JLINK_WriteReg(R9, 0x20000530)  returns 0x00 (0000ms, 4825ms total)
T185C 005:189 JLINK_WriteReg(R10, 0x00000000)  returns 0x00 (0000ms, 4825ms total)
T185C 005:189 JLINK_WriteReg(R11, 0x00000000)  returns 0x00 (0000ms, 4825ms total)
T185C 005:189 JLINK_WriteReg(R12, 0x00000000)  returns 0x00 (0000ms, 4825ms total)
T185C 005:189 JLINK_WriteReg(R13 (SP), 0x20001000)  returns 0x00 (0000ms, 4825ms total)
T185C 005:189 JLINK_WriteReg(R14, 0x20000001)  returns 0x00 (0000ms, 4825ms total)
T185C 005:189 JLINK_WriteReg(R15 (PC), 0x200000EC)  returns 0x00 (0001ms, 4826ms total)
T185C 005:190 JLINK_WriteReg(XPSR, 0x01000000)  returns 0x00 (0000ms, 4826ms total)
T185C 005:190 JLINK_WriteReg(MSP, 0x20001000)  returns 0x00 (0000ms, 4826ms total)
T185C 005:190 JLINK_WriteReg(PSP, 0x20001000)  returns 0x00 (0000ms, 4826ms total)
T185C 005:190 JLINK_WriteReg(CFBP, 0x00000000)  returns 0x00 (0000ms, 4826ms total)
T185C 005:190 JLINK_SetBPEx(Addr = 0x20000000, Type = 0xFFFFFFF2)  returns 0x0000000E (0000ms, 4826ms total)
T185C 005:190 JLINK_Go() -- CPU_ReadMem(4 bytes @ 0xE0001000) -- CPU_WriteMem(4 bytes @ 0xE0001000) (0003ms, 4829ms total)
T185C 005:193 JLINK_IsHalted()  returns FALSE (0001ms, 4830ms total)
T185C 005:196 JLINK_IsHalted()  returns FALSE (0001ms, 4830ms total)
T185C 005:199 JLINK_IsHalted()  returns FALSE (0000ms, 4829ms total)
T185C 005:201 JLINK_IsHalted()  returns FALSE (0001ms, 4830ms total)
T185C 005:203 JLINK_IsHalted() -- CPU_ReadMem(2 bytes @ 0x20000000)  returns TRUE (0006ms, 4835ms total)
T185C 005:209 JLINK_ReadReg(R15 (PC))  returns 0x20000000 (0000ms, 4829ms total)
T185C 005:209 JLINK_ClrBPEx(BPHandle = 0x0000000E)  returns 0x00 (0000ms, 4829ms total)
T185C 005:209 JLINK_ReadReg(R0)  returns 0x00000000 (0000ms, 4829ms total)
T185C 005:209 JLINK_WriteMem(0x20000560, 0x0200 Bytes, ...) - Data: 00 80 04 40 E0 1D 00 00 D0 1D 00 00 F0 1D 00 00 ... -- CPU_WriteMem(512 bytes @ 0x20000560)  returns 0x200 (0006ms, 4835ms total)
T185C 005:215 JLINK_WriteReg(R0, 0x00000600)  returns 0x00 (0000ms, 4835ms total)
T185C 005:215 JLINK_WriteReg(R1, 0x00000200)  returns 0x00 (0000ms, 4835ms total)
T185C 005:215 JLINK_WriteReg(R2, 0x20000560)  returns 0x00 (0000ms, 4835ms total)
T185C 005:215 JLINK_WriteReg(R3, 0x00000000)  returns 0x00 (0000ms, 4835ms total)
T185C 005:215 JLINK_WriteReg(R4, 0x00000000)  returns 0x00 (0000ms, 4835ms total)
T185C 005:215 JLINK_WriteReg(R5, 0x00000000)  returns 0x00 (0000ms, 4835ms total)
T185C 005:215 JLINK_WriteReg(R6, 0x00000000)  returns 0x00 (0000ms, 4835ms total)
T185C 005:215 JLINK_WriteReg(R7, 0x00000000)  returns 0x00 (0000ms, 4835ms total)
T185C 005:215 JLINK_WriteReg(R8, 0x00000000)  returns 0x00 (0000ms, 4835ms total)
T185C 005:215 JLINK_WriteReg(R9, 0x20000530)  returns 0x00 (0000ms, 4835ms total)
T185C 005:215 JLINK_WriteReg(R10, 0x00000000)  returns 0x00 (0001ms, 4836ms total)
T185C 005:216 JLINK_WriteReg(R11, 0x00000000)  returns 0x00 (0000ms, 4836ms total)
T185C 005:216 JLINK_WriteReg(R12, 0x00000000)  returns 0x00 (0000ms, 4836ms total)
T185C 005:216 JLINK_WriteReg(R13 (SP), 0x20001000)  returns 0x00 (0000ms, 4836ms total)
T185C 005:216 JLINK_WriteReg(R14, 0x20000001)  returns 0x00 (0000ms, 4836ms total)
T185C 005:216 JLINK_WriteReg(R15 (PC), 0x200000EC)  returns 0x00 (0000ms, 4836ms total)
T185C 005:216 JLINK_WriteReg(XPSR, 0x01000000)  returns 0x00 (0000ms, 4836ms total)
T185C 005:216 JLINK_WriteReg(MSP, 0x20001000)  returns 0x00 (0000ms, 4836ms total)
T185C 005:216 JLINK_WriteReg(PSP, 0x20001000)  returns 0x00 (0000ms, 4836ms total)
T185C 005:216 JLINK_WriteReg(CFBP, 0x00000000)  returns 0x00 (0000ms, 4836ms total)
T185C 005:216 JLINK_SetBPEx(Addr = 0x20000000, Type = 0xFFFFFFF2)  returns 0x0000000F (0000ms, 4836ms total)
T185C 005:216 JLINK_Go() -- CPU_ReadMem(4 bytes @ 0xE0001000) -- CPU_WriteMem(4 bytes @ 0xE0001000) (0003ms, 4839ms total)
T185C 005:219 JLINK_IsHalted()  returns FALSE (0001ms, 4840ms total)
T185C 005:222 JLINK_IsHalted()  returns FALSE (0001ms, 4840ms total)
T185C 005:224 JLINK_IsHalted()  returns FALSE (0001ms, 4840ms total)
T185C 005:226 JLINK_IsHalted()  returns FALSE (0001ms, 4840ms total)
T185C 005:229 JLINK_IsHalted() -- CPU_ReadMem(2 bytes @ 0x20000000)  returns TRUE (0005ms, 4844ms total)
T185C 005:234 JLINK_ReadReg(R15 (PC))  returns 0x20000000 (0000ms, 4839ms total)
T185C 005:234 JLINK_ClrBPEx(BPHandle = 0x0000000F)  returns 0x00 (0000ms, 4839ms total)
T185C 005:234 JLINK_ReadReg(R0)  returns 0x00000000 (0000ms, 4839ms total)
T185C 005:235 JLINK_WriteMem(0x20000560, 0x0200 Bytes, ...) - Data: 02 D9 11 49 E0 6A 08 60 14 22 E1 6A 51 43 0F 4A ... -- CPU_WriteMem(512 bytes @ 0x20000560)  returns 0x200 (0006ms, 4845ms total)
T185C 005:241 JLINK_WriteReg(R0, 0x00000800)  returns 0x00 (0000ms, 4845ms total)
T185C 005:241 JLINK_WriteReg(R1, 0x00000200)  returns 0x00 (0000ms, 4845ms total)
T185C 005:241 JLINK_WriteReg(R2, 0x20000560)  returns 0x00 (0000ms, 4845ms total)
T185C 005:241 JLINK_WriteReg(R3, 0x00000000)  returns 0x00 (0000ms, 4845ms total)
T185C 005:241 JLINK_WriteReg(R4, 0x00000000)  returns 0x00 (0000ms, 4845ms total)
T185C 005:241 JLINK_WriteReg(R5, 0x00000000)  returns 0x00 (0000ms, 4845ms total)
T185C 005:241 JLINK_WriteReg(R6, 0x00000000)  returns 0x00 (0001ms, 4846ms total)
T185C 005:242 JLINK_WriteReg(R7, 0x00000000)  returns 0x00 (0000ms, 4846ms total)
T185C 005:242 JLINK_WriteReg(R8, 0x00000000)  returns 0x00 (0000ms, 4846ms total)
T185C 005:242 JLINK_WriteReg(R9, 0x20000530)  returns 0x00 (0000ms, 4846ms total)
T185C 005:242 JLINK_WriteReg(R10, 0x00000000)  returns 0x00 (0000ms, 4846ms total)
T185C 005:242 JLINK_WriteReg(R11, 0x00000000)  returns 0x00 (0000ms, 4846ms total)
T185C 005:242 JLINK_WriteReg(R12, 0x00000000)  returns 0x00 (0000ms, 4846ms total)
T185C 005:242 JLINK_WriteReg(R13 (SP), 0x20001000)  returns 0x00 (0000ms, 4846ms total)
T185C 005:242 JLINK_WriteReg(R14, 0x20000001)  returns 0x00 (0000ms, 4846ms total)
T185C 005:242 JLINK_WriteReg(R15 (PC), 0x200000EC)  returns 0x00 (0000ms, 4846ms total)
T185C 005:242 JLINK_WriteReg(XPSR, 0x01000000)  returns 0x00 (0000ms, 4846ms total)
T185C 005:242 JLINK_WriteReg(MSP, 0x20001000)  returns 0x00 (0000ms, 4846ms total)
T185C 005:242 JLINK_WriteReg(PSP, 0x20001000)  returns 0x00 (0000ms, 4846ms total)
T185C 005:242 JLINK_WriteReg(CFBP, 0x00000000)  returns 0x00 (0000ms, 4846ms total)
T185C 005:242 JLINK_SetBPEx(Addr = 0x20000000, Type = 0xFFFFFFF2)  returns 0x00000010 (0000ms, 4846ms total)
T185C 005:242 JLINK_Go() -- CPU_ReadMem(4 bytes @ 0xE0001000) -- CPU_WriteMem(4 bytes @ 0xE0001000) (0004ms, 4850ms total)
T185C 005:246 JLINK_IsHalted()  returns FALSE (0000ms, 4850ms total)
T185C 005:249 JLINK_IsHalted()  returns FALSE (0000ms, 4850ms total)
T185C 005:251 JLINK_IsHalted()  returns FALSE (0000ms, 4850ms total)
T185C 005:253 JLINK_IsHalted()  returns FALSE (0000ms, 4850ms total)
T185C 005:255 JLINK_IsHalted() -- CPU_ReadMem(2 bytes @ 0x20000000)  returns TRUE (0005ms, 4855ms total)
T185C 005:260 JLINK_ReadReg(R15 (PC))  returns 0x20000000 (0000ms, 4850ms total)
